CITIFILE A.01.01
# File generated on Sat Apr 25 00:07:22 2020

NAME VemEngine -DC F:\FedevelAcademy\Learn to Design your own Board\Files\28Pins\!Design Files\V1I1\28Pins_Project_V1I1\ADS_Simulations\ArduinoUno\simulation\28Pins_Project_V1I1_PCB_lib\28%Pins_%Project_%V1%I1_%P%C%B\sipi%Setup\000001\design.out.electric

CONSTANT NBR_OP_PORTS 8

VAR freq MAG 1

DATA Y[1,1] RI
DATA Y[1,2] RI
DATA Y[1,3] RI
DATA Y[1,4] RI
DATA Y[1,5] RI
DATA Y[1,6] RI
DATA Y[1,7] RI
DATA Y[1,8] RI
DATA Y[2,1] RI
DATA Y[2,2] RI
DATA Y[2,3] RI
DATA Y[2,4] RI
DATA Y[2,5] RI
DATA Y[2,6] RI
DATA Y[2,7] RI
DATA Y[2,8] RI
DATA Y[3,1] RI
DATA Y[3,2] RI
DATA Y[3,3] RI
DATA Y[3,4] RI
DATA Y[3,5] RI
DATA Y[3,6] RI
DATA Y[3,7] RI
DATA Y[3,8] RI
DATA Y[4,1] RI
DATA Y[4,2] RI
DATA Y[4,3] RI
DATA Y[4,4] RI
DATA Y[4,5] RI
DATA Y[4,6] RI
DATA Y[4,7] RI
DATA Y[4,8] RI
DATA Y[5,1] RI
DATA Y[5,2] RI
DATA Y[5,3] RI
DATA Y[5,4] RI
DATA Y[5,5] RI
DATA Y[5,6] RI
DATA Y[5,7] RI
DATA Y[5,8] RI
DATA Y[6,1] RI
DATA Y[6,2] RI
DATA Y[6,3] RI
DATA Y[6,4] RI
DATA Y[6,5] RI
DATA Y[6,6] RI
DATA Y[6,7] RI
DATA Y[6,8] RI
DATA Y[7,1] RI
DATA Y[7,2] RI
DATA Y[7,3] RI
DATA Y[7,4] RI
DATA Y[7,5] RI
DATA Y[7,6] RI
DATA Y[7,7] RI
DATA Y[7,8] RI
DATA Y[8,1] RI
DATA Y[8,2] RI
DATA Y[8,3] RI
DATA Y[8,4] RI
DATA Y[8,5] RI
DATA Y[8,6] RI
DATA Y[8,7] RI
DATA Y[8,8] RI
DATA S[1,1] RI
DATA S[1,2] RI
DATA S[1,3] RI
DATA S[1,4] RI
DATA S[1,5] RI
DATA S[1,6] RI
DATA S[1,7] RI
DATA S[1,8] RI
DATA S[2,1] RI
DATA S[2,2] RI
DATA S[2,3] RI
DATA S[2,4] RI
DATA S[2,5] RI
DATA S[2,6] RI
DATA S[2,7] RI
DATA S[2,8] RI
DATA S[3,1] RI
DATA S[3,2] RI
DATA S[3,3] RI
DATA S[3,4] RI
DATA S[3,5] RI
DATA S[3,6] RI
DATA S[3,7] RI
DATA S[3,8] RI
DATA S[4,1] RI
DATA S[4,2] RI
DATA S[4,3] RI
DATA S[4,4] RI
DATA S[4,5] RI
DATA S[4,6] RI
DATA S[4,7] RI
DATA S[4,8] RI
DATA S[5,1] RI
DATA S[5,2] RI
DATA S[5,3] RI
DATA S[5,4] RI
DATA S[5,5] RI
DATA S[5,6] RI
DATA S[5,7] RI
DATA S[5,8] RI
DATA S[6,1] RI
DATA S[6,2] RI
DATA S[6,3] RI
DATA S[6,4] RI
DATA S[6,5] RI
DATA S[6,6] RI
DATA S[6,7] RI
DATA S[6,8] RI
DATA S[7,1] RI
DATA S[7,2] RI
DATA S[7,3] RI
DATA S[7,4] RI
DATA S[7,5] RI
DATA S[7,6] RI
DATA S[7,7] RI
DATA S[7,8] RI
DATA S[8,1] RI
DATA S[8,2] RI
DATA S[8,3] RI
DATA S[8,4] RI
DATA S[8,5] RI
DATA S[8,6] RI
DATA S[8,7] RI
DATA S[8,8] RI
DATA PORTZ[1] RI
DATA PORTZ[2] RI
DATA PORTZ[3] RI
DATA PORTZ[4] RI
DATA PORTZ[5] RI
DATA PORTZ[6] RI
DATA PORTZ[7] RI
DATA PORTZ[8] RI

VAR_LIST_BEGIN
  0
VAR_LIST_END

# Y[1,1]
BEGIN
  20.97450317753982, 0.0
END
# Y[1,2]
BEGIN
  -10.89719105729588, 0.0
END
# Y[1,3]
BEGIN
  -4.617690705061452, 0.0
END
# Y[1,4]
BEGIN
  -5.459621307636484, 0.0
END
# Y[1,5]
BEGIN
  -20.97450317377069, 0.0
END
# Y[1,6]
BEGIN
  -20.9745031747616, 0.0
END
# Y[1,7]
BEGIN
  -4.617690704806998, 0.0
END
# Y[1,8]
BEGIN
  -10.89719105708508, 0.0
END
# Y[2,1]
BEGIN
  -10.89712802448969, 0.0
END
# Y[2,2]
BEGIN
  85.52334798312414, 0.0
END
# Y[2,3]
BEGIN
  -54.18553801021385, 0.0
END
# Y[2,4]
BEGIN
  -20.44068216187313, 0.0
END
# Y[2,5]
BEGIN
  10.89712802470781, 0.0
END
# Y[2,6]
BEGIN
  10.89712802446839, 0.0
END
# Y[2,7]
BEGIN
  -54.18553800979019, 0.0
END
# Y[2,8]
BEGIN
  85.52334798382032, 0.0
END
# Y[3,1]
BEGIN
  -4.617663971033869, 0.0
END
# Y[3,2]
BEGIN
  -54.18553803497581, 0.0
END
# Y[3,3]
BEGIN
  67.46495221504139, 0.0
END
# Y[3,4]
BEGIN
  -8.661750299319683, 0.0
END
# Y[3,5]
BEGIN
  4.6176639711263, 0.0
END
# Y[3,6]
BEGIN
  4.617663971024848, 0.0
END
# Y[3,7]
BEGIN
  67.46495221523237, 0.0
END
# Y[3,8]
BEGIN
  -54.18553803497697, 0.0
END
# Y[4,1]
BEGIN
  -5.459711179799844, 0.0
END
# Y[4,2]
BEGIN
  -20.44061889160116, 0.0
END
# Y[4,3]
BEGIN
  -8.661723499853775, 0.0
END
# Y[4,4]
BEGIN
  34.56205376855873, 0.0
END
# Y[4,5]
BEGIN
  5.459711179909125, 0.0
END
# Y[4,6]
BEGIN
  5.459711179789172, 0.0
END
# Y[4,7]
BEGIN
  -8.66172349979408, 0.0
END
# Y[4,8]
BEGIN
  -20.44061889160935, 0.0
END
# Y[5,1]
BEGIN
  -20.97450317376982, 0.0
END
# Y[5,2]
BEGIN
  10.89719105751356, 0.0
END
# Y[5,3]
BEGIN
  4.617690705153693, 0.0
END
# Y[5,4]
BEGIN
  5.45962130774554, 0.0
END
# Y[5,5]
BEGIN
  20.97450317418966, 0.0
END
# Y[5,6]
BEGIN
  20.97450317518058, 0.0
END
# Y[5,7]
BEGIN
  4.617690704899239, 0.0
END
# Y[5,8]
BEGIN
  10.89719105730276, 0.0
END
# Y[6,1]
BEGIN
  -20.97450317476104, 0.0
END
# Y[6,2]
BEGIN
  10.89719105727429, 0.0
END
# Y[6,3]
BEGIN
  4.617690705052304, 0.0
END
# Y[6,4]
BEGIN
  5.459621307625666, 0.0
END
# Y[6,5]
BEGIN
  20.97450317518088, 0.0
END
# Y[6,6]
BEGIN
  20.97450317472006, 0.0
END
# Y[6,7]
BEGIN
  4.61769070479785, 0.0
END
# Y[6,8]
BEGIN
  10.89719105706349, 0.0
END
# Y[7,1]
BEGIN
  -4.617663970779226, 0.0
END
# Y[7,2]
BEGIN
  -54.18553803455221, 0.0
END
# Y[7,3]
BEGIN
  67.46495221523227, 0.0
END
# Y[7,4]
BEGIN
  -8.661750299260051, 0.0
END
# Y[7,5]
BEGIN
  4.617663970871656, 0.0
END
# Y[7,6]
BEGIN
  4.617663970770205, 0.0
END
# Y[7,7]
BEGIN
  67.46495221449447, 0.0
END
# Y[7,8]
BEGIN
  -54.18553803455335, 0.0
END
# Y[8,1]
BEGIN
  -10.8971280242787, 0.0
END
# Y[8,2]
BEGIN
  85.52334798382014, 0.0
END
# Y[8,3]
BEGIN
  -54.18553801021497, 0.0
END
# Y[8,4]
BEGIN
  -20.44068216188138, 0.0
END
# Y[8,5]
BEGIN
  10.89712802449683, 0.0
END
# Y[8,6]
BEGIN
  10.89712802425741, 0.0
END
# Y[8,7]
BEGIN
  -54.18553800979131, 0.0
END
# Y[8,8]
BEGIN
  85.52334798361866, 0.0
END

# S[1,1]
BEGIN
  0.4287330614908953, 0.0
END
# S[1,2]
BEGIN
  0.14284096228252, 0.0
END
# S[1,3]
BEGIN
  0.1428318607168038, 0.0
END
# S[1,4]
BEGIN
  0.2855938867851506, 0.0
END
# S[1,5]
BEGIN
  0.5712666392747039, 0.0
END
# S[1,6]
BEGIN
  0.571266701502914, 0.0
END
# S[1,7]
BEGIN
  0.1428318540766611, 0.0
END
# S[1,8]
BEGIN
  0.1428409558663475, 0.0
END
# S[2,1]
BEGIN
  0.1428409628830991, 0.0
END
# S[2,2]
BEGIN
  0.2143841775755391, 0.0
END
# S[2,3]
BEGIN
  0.2143236386167473, 0.0
END
# S[2,4]
BEGIN
  0.4284512758151777, 0.0
END
# S[2,5]
BEGIN
  -0.1428409928038263, 0.0
END
# S[2,6]
BEGIN
  -0.1428409720638228, 0.0
END
# S[2,7]
BEGIN
  0.2143236286635215, 0.0
END
# S[2,8]
BEGIN
  -0.7856158769272952, 0.0
END
# S[3,1]
BEGIN
  0.14283186131712, 0.0
END
# S[3,2]
BEGIN
  0.2143236386166336, 0.0
END
# S[3,3]
BEGIN
  0.2144205808271522, 0.0
END
# S[3,4]
BEGIN
  0.4284239756798343, 0.0
END
# S[3,5]
BEGIN
  -0.1428318912359714, 0.0
END
# S[3,6]
BEGIN
  -0.1428318704972753, 0.0
END
# S[3,7]
BEGIN
  -0.7855794755595298, 0.0
END
# S[3,8]
BEGIN
  0.2143236290000914, 0.0
END
# S[4,1]
BEGIN
  0.2855938875235751, 0.0
END
# S[4,2]
BEGIN
  0.428451272537302, 0.0
END
# S[4,3]
BEGIN
  0.4284239724026548, 0.0
END
# S[4,4]
BEGIN
  -0.1424691260141913, 0.0
END
# S[4,5]
BEGIN
  -0.2855939473464844, 0.0
END
# S[4,6]
BEGIN
  -0.2855939058792956, 0.0
END
# S[4,7]
BEGIN
  0.4284239525043461, 0.0
END
# S[4,8]
BEGIN
  0.4284512533097313, 0.0
END
# S[5,1]
BEGIN
  0.5712666392742918, 0.0
END
# S[5,2]
BEGIN
  -0.1428409922033609, 0.0
END
# S[5,3]
BEGIN
  -0.1428318906356409, 0.0
END
# S[5,4]
BEGIN
  -0.2855939466081878, 0.0
END
# S[5,5]
BEGIN
  0.42873324106327, 0.0
END
# S[5,6]
BEGIN
  -0.5712668211657288, 0.0
END
# S[5,7]
BEGIN
  -0.1428318839954841, 0.0
END
# S[5,8]
BEGIN
  -0.1428409857870747, 0.0
END
# S[6,1]
BEGIN
  0.5712667015029567, 0.0
END
# S[6,2]
BEGIN
  -0.1428409714633574, 0.0
END
# S[6,3]
BEGIN
  -0.1428318698968738, 0.0
END
# S[6,4]
BEGIN
  -0.2855939051408285, 0.0
END
# S[6,5]
BEGIN
  -0.5712668211656222, 0.0
END
# S[6,6]
BEGIN
  0.4287332617804154, 0.0
END
# S[6,7]
BEGIN
  -0.1428318632567525, 0.0
END
# S[6,8]
BEGIN
  -0.1428409650469007, 0.0
END
# S[7,1]
BEGIN
  0.1428318546772971, 0.0
END
# S[7,2]
BEGIN
  0.2143236286640331, 0.0
END
# S[7,3]
BEGIN
  -0.7855794755592456, 0.0
END
# S[7,4]
BEGIN
  0.4284239557819092, 0.0
END
# S[7,5]
BEGIN
  -0.1428318845960064, 0.0
END
# S[7,6]
BEGIN
  -0.1428318638573103, 0.0
END
# S[7,7]
BEGIN
  0.2144205609315009, 0.0
END
# S[7,8]
BEGIN
  0.2143236190456719, 0.0
END
# S[8,1]
BEGIN
  0.1428409564668414, 0.0
END
# S[8,2]
BEGIN
  -0.7856158769275225, 0.0
END
# S[8,3]
BEGIN
  0.2143236289993524, 0.0
END
# S[8,4]
BEGIN
  0.4284512565877776, 0.0
END
# S[8,5]
BEGIN
  -0.1428409863875117, 0.0
END
# S[8,6]
BEGIN
  -0.1428409656476219, 0.0
END
# S[8,7]
BEGIN
  0.2143236190457287, 0.0
END
# S[8,8]
BEGIN
  0.2143841583365429, 0.0
END

# PORTZ[1]
BEGIN
  50, 0.0
END
# PORTZ[2]
BEGIN
  50, 0.0
END
# PORTZ[3]
BEGIN
  50, 0.0
END
# PORTZ[4]
BEGIN
  50, 0.0
END
# PORTZ[5]
BEGIN
  50, 0.0
END
# PORTZ[6]
BEGIN
  50, 0.0
END
# PORTZ[7]
BEGIN
  50, 0.0
END
# PORTZ[8]
BEGIN
  50, 0.0
END

